l_s,l_2,l_1,s_2,s_1,w_s,w_2,w_1,freq,S11_dB,S21_dB
6.0,7.0,7.0,0.15,0.15,0.6,0.5,0.2,800.0 MHz,-0.471,-9.909
6.0,7.0,7.0,0.15,0.15,0.6,0.5,0.2,900.0 MHz,-0.558,-9.218
6.0,7.0,7.0,0.15,0.15,0.6,0.5,0.2,1.000 GHz,-0.644,-8.638
6.0,7.0,7.0,0.15,0.15,0.6,0.5,0.2,1.100 GHz,-0.729,-8.144
6.0,7.0,7.0,0.15,0.15,0.6,0.5,0.2,1.200 GHz,-0.812,-7.718
6.0,7.0,7.0,0.15,0.15,0.6,0.5,0.2,1.300 GHz,-0.892,-7.344
6.0,7.0,7.0,0.15,0.15,0.6,0.5,0.2,1.400 GHz,-0.972,-7.012
6.0,7.0,7.0,0.15,0.15,0.6,0.5,0.2,1.500 GHz,-1.05,-6.714
6.0,7.0,7.0,0.15,0.15,0.6,0.5,0.2,1.600 GHz,-1.127,-6.444
6.0,7.0,7.0,0.15,0.15,0.6,0.5,0.2,1.700 GHz,-1.203,-6.195
6.0,7.0,7.0,0.15,0.15,0.6,0.5,0.2,1.800 GHz,-1.279,-5.964
6.0,7.0,7.0,0.15,0.15,0.6,0.5,0.2,1.900 GHz,-1.356,-5.749
6.0,7.0,7.0,0.15,0.15,0.6,0.5,0.2,2.000 GHz,-1.432,-5.546
6.0,7.0,7.0,0.15,0.15,0.6,0.5,0.2,2.100 GHz,-1.51,-5.355
6.0,7.0,7.0,0.15,0.15,0.6,0.5,0.2,2.200 GHz,-1.588,-5.172
6.0,7.0,7.0,0.15,0.15,0.6,0.5,0.2,2.300 GHz,-1.667,-4.998
6.0,7.0,7.0,0.15,0.15,0.6,0.5,0.2,2.400 GHz,-1.748,-4.831
6.0,7.0,7.0,0.15,0.15,0.6,0.5,0.2,2.500 GHz,-1.829,-4.672
6.0,7.0,7.0,0.15,0.15,0.6,0.5,0.2,2.600 GHz,-1.912,-4.518
6.0,7.0,7.0,0.15,0.15,0.6,0.5,0.2,2.700 GHz,-1.997,-4.371
6.0,7.0,7.0,0.15,0.15,0.6,0.5,0.2,2.800 GHz,-2.082,-4.229
6.0,7.0,7.0,0.15,0.15,0.6,0.5,0.2,2.900 GHz,-2.169,-4.093
6.0,7.0,7.0,0.15,0.15,0.6,0.5,0.2,3.000 GHz,-2.257,-3.962
6.0,7.0,7.0,0.15,0.15,0.6,0.5,0.2,3.100 GHz,-2.346,-3.836
6.0,7.0,7.0,0.15,0.15,0.6,0.5,0.2,3.200 GHz,-2.437,-3.715
6.0,7.0,7.0,0.15,0.15,0.6,0.5,0.2,3.300 GHz,-2.528,-3.598
6.0,7.0,7.0,0.15,0.15,0.6,0.5,0.2,3.400 GHz,-2.622,-3.485
6.0,7.0,7.0,0.15,0.15,0.6,0.5,0.2,3.500 GHz,-2.717,-3.375
6.0,7.0,7.0,0.15,0.15,0.6,0.5,0.2,3.600 GHz,-2.815,-3.269
6.0,7.0,7.0,0.15,0.15,0.6,0.5,0.2,3.700 GHz,-2.916,-3.164
6.0,7.0,7.0,0.15,0.15,0.6,0.5,0.2,3.800 GHz,-3.02,-3.061
6.0,7.0,7.0,0.15,0.15,0.6,0.5,0.2,3.900 GHz,-3.13,-2.958
6.0,7.0,7.0,0.15,0.15,0.6,0.5,0.2,4.000 GHz,-3.246,-2.854
6.0,7.0,7.0,0.15,0.15,0.6,0.5,0.8,800.0 MHz,-0.637,-8.682
6.0,7.0,7.0,0.15,0.15,0.6,0.5,0.8,900.0 MHz,-0.781,-7.865
6.0,7.0,7.0,0.15,0.15,0.6,0.5,0.8,1.000 GHz,-0.934,-7.166
6.0,7.0,7.0,0.15,0.15,0.6,0.5,0.8,1.100 GHz,-1.093,-6.56
6.0,7.0,7.0,0.15,0.15,0.6,0.5,0.8,1.200 GHz,-1.257,-6.029
6.0,7.0,7.0,0.15,0.15,0.6,0.5,0.8,1.300 GHz,-1.427,-5.56
6.0,7.0,7.0,0.15,0.15,0.6,0.5,0.8,1.400 GHz,-1.601,-5.142
6.0,7.0,7.0,0.15,0.15,0.6,0.5,0.8,1.500 GHz,-1.779,-4.766
6.0,7.0,7.0,0.15,0.15,0.6,0.5,0.8,1.600 GHz,-1.963,-4.425
6.0,7.0,7.0,0.15,0.15,0.6,0.5,0.8,1.700 GHz,-2.152,-4.113
6.0,7.0,7.0,0.15,0.15,0.6,0.5,0.8,1.800 GHz,-2.346,-3.826
6.0,7.0,7.0,0.15,0.15,0.6,0.5,0.8,1.900 GHz,-2.547,-3.56
6.0,7.0,7.0,0.15,0.15,0.6,0.5,0.8,2.000 GHz,-2.756,-3.313
6.0,7.0,7.0,0.15,0.15,0.6,0.5,0.8,2.100 GHz,-2.972,-3.082
6.0,7.0,7.0,0.15,0.15,0.6,0.5,0.8,2.200 GHz,-3.197,-2.864
6.0,7.0,7.0,0.15,0.15,0.6,0.5,0.8,2.300 GHz,-3.433,-2.659
6.0,7.0,7.0,0.15,0.15,0.6,0.5,0.8,2.400 GHz,-3.68,-2.465
6.0,7.0,7.0,0.15,0.15,0.6,0.5,0.8,2.500 GHz,-3.939,-2.282
6.0,7.0,7.0,0.15,0.15,0.6,0.5,0.8,2.600 GHz,-4.211,-2.108
6.0,7.0,7.0,0.15,0.15,0.6,0.5,0.8,2.700 GHz,-4.498,-1.943
6.0,7.0,7.0,0.15,0.15,0.6,0.5,0.8,2.800 GHz,-4.801,-1.787
6.0,7.0,7.0,0.15,0.15,0.6,0.5,0.8,2.900 GHz,-5.12,-1.639
6.0,7.0,7.0,0.15,0.15,0.6,0.5,0.8,3.000 GHz,-5.459,-1.499
6.0,7.0,7.0,0.15,0.15,0.6,0.5,0.8,3.100 GHz,-5.816,-1.368
6.0,7.0,7.0,0.15,0.15,0.6,0.5,0.8,3.200 GHz,-6.195,-1.244
6.0,7.0,7.0,0.15,0.15,0.6,0.5,0.8,3.300 GHz,-6.596,-1.127
6.0,7.0,7.0,0.15,0.15,0.6,0.5,0.8,3.400 GHz,-7.02,-1.018
6.0,7.0,7.0,0.15,0.15,0.6,0.5,0.8,3.500 GHz,-7.47,-0.917
6.0,7.0,7.0,0.15,0.15,0.6,0.5,0.8,3.600 GHz,-7.946,-0.823
6.0,7.0,7.0,0.15,0.15,0.6,0.5,0.8,3.700 GHz,-8.448,-0.737
6.0,7.0,7.0,0.15,0.15,0.6,0.5,0.8,3.800 GHz,-8.976,-0.659
6.0,7.0,7.0,0.15,0.15,0.6,0.5,0.8,3.900 GHz,-9.528,-0.588
6.0,7.0,7.0,0.15,0.15,0.6,0.5,0.8,4.000 GHz,-10.101,-0.526
6.0,7.0,7.0,0.15,0.15,0.6,0.5,1.4,800.0 MHz,-0.8,-7.773
6.0,7.0,7.0,0.15,0.15,0.6,0.5,1.4,900.0 MHz,-1.01,-6.863
6.0,7.0,7.0,0.15,0.15,0.6,0.5,1.4,1.000 GHz,-1.241,-6.079
6.0,7.0,7.0,0.15,0.15,0.6,0.5,1.4,1.100 GHz,-1.492,-5.398
6.0,7.0,7.0,0.15,0.15,0.6,0.5,1.4,1.200 GHz,-1.76,-4.806
6.0,7.0,7.0,0.15,0.15,0.6,0.5,1.4,1.300 GHz,-2.044,-4.289
6.0,7.0,7.0,0.15,0.15,0.6,0.5,1.4,1.400 GHz,-2.339,-3.838
6.0,7.0,7.0,0.15,0.15,0.6,0.5,1.4,1.500 GHz,-2.644,-3.445
6.0,7.0,7.0,0.15,0.15,0.6,0.5,1.4,1.600 GHz,-2.954,-3.101
6.0,7.0,7.0,0.15,0.15,0.6,0.5,1.4,1.700 GHz,-3.267,-2.802
6.0,7.0,7.0,0.15,0.15,0.6,0.5,1.4,1.800 GHz,-3.58,-2.542
6.0,7.0,7.0,0.15,0.15,0.6,0.5,1.4,1.900 GHz,-3.89,-2.315
6.0,7.0,7.0,0.15,0.15,0.6,0.5,1.4,2.000 GHz,-4.193,-2.118
6.0,7.0,7.0,0.15,0.15,0.6,0.5,1.4,2.100 GHz,-4.488,-1.947
6.0,7.0,7.0,0.15,0.15,0.6,0.5,1.4,2.200 GHz,-4.773,-1.799
6.0,7.0,7.0,0.15,0.15,0.6,0.5,1.4,2.300 GHz,-5.045,-1.671
6.0,7.0,7.0,0.15,0.15,0.6,0.5,1.4,2.400 GHz,-5.304,-1.56
6.0,7.0,7.0,0.15,0.15,0.6,0.5,1.4,2.500 GHz,-5.548,-1.464
6.0,7.0,7.0,0.15,0.15,0.6,0.5,1.4,2.600 GHz,-5.776,-1.381
6.0,7.0,7.0,0.15,0.15,0.6,0.5,1.4,2.700 GHz,-5.989,-1.309
6.0,7.0,7.0,0.15,0.15,0.6,0.5,1.4,2.800 GHz,-6.186,-1.248
6.0,7.0,7.0,0.15,0.15,0.6,0.5,1.4,2.900 GHz,-6.366,-1.195
6.0,7.0,7.0,0.15,0.15,0.6,0.5,1.4,3.000 GHz,-6.53,-1.151
6.0,7.0,7.0,0.15,0.15,0.6,0.5,1.4,3.100 GHz,-6.679,-1.113
6.0,7.0,7.0,0.15,0.15,0.6,0.5,1.4,3.200 GHz,-6.811,-1.081
6.0,7.0,7.0,0.15,0.15,0.6,0.5,1.4,3.300 GHz,-6.927,-1.054
6.0,7.0,7.0,0.15,0.15,0.6,0.5,1.4,3.400 GHz,-7.027,-1.033
6.0,7.0,7.0,0.15,0.15,0.6,0.5,1.4,3.500 GHz,-7.111,-1.017
6.0,7.0,7.0,0.15,0.15,0.6,0.5,1.4,3.600 GHz,-7.178,-1.004
6.0,7.0,7.0,0.15,0.15,0.6,0.5,1.4,3.700 GHz,-7.229,-0.996
6.0,7.0,7.0,0.15,0.15,0.6,0.5,1.4,3.800 GHz,-7.263,-0.992
6.0,7.0,7.0,0.15,0.15,0.6,0.5,1.4,3.900 GHz,-7.281,-0.992
6.0,7.0,7.0,0.15,0.15,0.6,0.5,1.4,4.000 GHz,-7.282,-0.995
6.0,7.0,7.0,0.15,0.15,0.6,0.5,2.0,800.0 MHz,-1.004,-6.886
6.0,7.0,7.0,0.15,0.15,0.6,0.5,2.0,900.0 MHz,-1.309,-5.881
6.0,7.0,7.0,0.15,0.15,0.6,0.5,2.0,1.000 GHz,-1.658,-5.019
6.0,7.0,7.0,0.15,0.15,0.6,0.5,2.0,1.100 GHz,-2.047,-4.285
6.0,7.0,7.0,0.15,0.15,0.6,0.5,2.0,1.200 GHz,-2.466,-3.668
6.0,7.0,7.0,0.15,0.15,0.6,0.5,2.0,1.300 GHz,-2.9,-3.16
6.0,7.0,7.0,0.15,0.15,0.6,0.5,2.0,1.400 GHz,-3.33,-2.749
6.0,7.0,7.0,0.15,0.15,0.6,0.5,2.0,1.500 GHz,-3.735,-2.427
6.0,7.0,7.0,0.15,0.15,0.6,0.5,2.0,1.600 GHz,-4.093,-2.182
6.0,7.0,7.0,0.15,0.15,0.6,0.5,2.0,1.700 GHz,-4.39,-2.004
6.0,7.0,7.0,0.15,0.15,0.6,0.5,2.0,1.800 GHz,-4.617,-1.881
6.0,7.0,7.0,0.15,0.15,0.6,0.5,2.0,1.900 GHz,-4.772,-1.802
6.0,7.0,7.0,0.15,0.15,0.6,0.5,2.0,2.000 GHz,-4.864,-1.759
6.0,7.0,7.0,0.15,0.15,0.6,0.5,2.0,2.100 GHz,-4.902,-1.742
6.0,7.0,7.0,0.15,0.15,0.6,0.5,2.0,2.200 GHz,-4.901,-1.746
6.0,7.0,7.0,0.15,0.15,0.6,0.5,2.0,2.300 GHz,-4.872,-1.762
6.0,7.0,7.0,0.15,0.15,0.6,0.5,2.0,2.400 GHz,-4.826,-1.787
6.0,7.0,7.0,0.15,0.15,0.6,0.5,2.0,2.500 GHz,-4.772,-1.817
6.0,7.0,7.0,0.15,0.15,0.6,0.5,2.0,2.600 GHz,-4.716,-1.848
6.0,7.0,7.0,0.15,0.15,0.6,0.5,2.0,2.700 GHz,-4.664,-1.879
6.0,7.0,7.0,0.15,0.15,0.6,0.5,2.0,2.800 GHz,-4.618,-1.907
6.0,7.0,7.0,0.15,0.15,0.6,0.5,2.0,2.900 GHz,-4.58,-1.931
6.0,7.0,7.0,0.15,0.15,0.6,0.5,2.0,3.000 GHz,-4.552,-1.95
6.0,7.0,7.0,0.15,0.15,0.6,0.5,2.0,3.100 GHz,-4.535,-1.963
6.0,7.0,7.0,0.15,0.15,0.6,0.5,2.0,3.200 GHz,-4.528,-1.971
6.0,7.0,7.0,0.15,0.15,0.6,0.5,2.0,3.300 GHz,-4.532,-1.973
6.0,7.0,7.0,0.15,0.15,0.6,0.5,2.0,3.400 GHz,-4.547,-1.969
6.0,7.0,7.0,0.15,0.15,0.6,0.5,2.0,3.500 GHz,-4.572,-1.96
6.0,7.0,7.0,0.15,0.15,0.6,0.5,2.0,3.600 GHz,-4.608,-1.945
6.0,7.0,7.0,0.15,0.15,0.6,0.5,2.0,3.700 GHz,-4.652,-1.925
6.0,7.0,7.0,0.15,0.15,0.6,0.5,2.0,3.800 GHz,-4.706,-1.9
6.0,7.0,7.0,0.15,0.15,0.6,0.5,2.0,3.900 GHz,-4.768,-1.871
6.0,7.0,7.0,0.15,0.15,0.6,0.5,2.0,4.000 GHz,-4.839,-1.839
6.0,7.0,7.0,0.15,0.15,0.6,1.0,0.2,800.0 MHz,-0.486,-9.786
6.0,7.0,7.0,0.15,0.15,0.6,1.0,0.2,900.0 MHz,-0.583,-9.045
6.0,7.0,7.0,0.15,0.15,0.6,1.0,0.2,1.000 GHz,-0.682,-8.41
6.0,7.0,7.0,0.15,0.15,0.6,1.0,0.2,1.100 GHz,-0.783,-7.857
6.0,7.0,7.0,0.15,0.15,0.6,1.0,0.2,1.200 GHz,-0.887,-7.368
6.0,7.0,7.0,0.15,0.15,0.6,1.0,0.2,1.300 GHz,-0.993,-6.927
6.0,7.0,7.0,0.15,0.15,0.6,1.0,0.2,1.400 GHz,-1.103,-6.525
6.0,7.0,7.0,0.15,0.15,0.6,1.0,0.2,1.500 GHz,-1.216,-6.152
6.0,7.0,7.0,0.15,0.15,0.6,1.0,0.2,1.600 GHz,-1.335,-5.805
6.0,7.0,7.0,0.15,0.15,0.6,1.0,0.2,1.700 GHz,-1.459,-5.477
6.0,7.0,7.0,0.15,0.15,0.6,1.0,0.2,1.800 GHz,-1.59,-5.165
6.0,7.0,7.0,0.15,0.15,0.6,1.0,0.2,1.900 GHz,-1.727,-4.868
6.0,7.0,7.0,0.15,0.15,0.6,1.0,0.2,2.000 GHz,-1.873,-4.583
6.0,7.0,7.0,0.15,0.15,0.6,1.0,0.2,2.100 GHz,-2.027,-4.312
6.0,7.0,7.0,0.15,0.15,0.6,1.0,0.2,2.200 GHz,-2.188,-4.053
6.0,7.0,7.0,0.15,0.15,0.6,1.0,0.2,2.300 GHz,-2.357,-3.807
6.0,7.0,7.0,0.15,0.15,0.6,1.0,0.2,2.400 GHz,-2.531,-3.576
6.0,7.0,7.0,0.15,0.15,0.6,1.0,0.2,2.500 GHz,-2.709,-3.361
6.0,7.0,7.0,0.15,0.15,0.6,1.0,0.2,2.600 GHz,-2.887,-3.164
6.0,7.0,7.0,0.15,0.15,0.6,1.0,0.2,2.700 GHz,-3.062,-2.987
6.0,7.0,7.0,0.15,0.15,0.6,1.0,0.2,2.800 GHz,-3.228,-2.832
6.0,7.0,7.0,0.15,0.15,0.6,1.0,0.2,2.900 GHz,-3.379,-2.7
6.0,7.0,7.0,0.15,0.15,0.6,1.0,0.2,3.000 GHz,-3.511,-2.593
6.0,7.0,7.0,0.15,0.15,0.6,1.0,0.2,3.100 GHz,-3.616,-2.511
6.0,7.0,7.0,0.15,0.15,0.6,1.0,0.2,3.200 GHz,-3.693,-2.455
6.0,7.0,7.0,0.15,0.15,0.6,1.0,0.2,3.300 GHz,-3.738,-2.423
6.0,7.0,7.0,0.15,0.15,0.6,1.0,0.2,3.400 GHz,-3.752,-2.415
6.0,7.0,7.0,0.15,0.15,0.6,1.0,0.2,3.500 GHz,-3.738,-2.429
6.0,7.0,7.0,0.15,0.15,0.6,1.0,0.2,3.600 GHz,-3.698,-2.461
6.0,7.0,7.0,0.15,0.15,0.6,1.0,0.2,3.700 GHz,-3.64,-2.508
6.0,7.0,7.0,0.15,0.15,0.6,1.0,0.2,3.800 GHz,-3.568,-2.567
6.0,7.0,7.0,0.15,0.15,0.6,1.0,0.2,3.900 GHz,-3.49,-2.634
6.0,7.0,7.0,0.15,0.15,0.6,1.0,0.2,4.000 GHz,-3.41,-2.705
6.0,7.0,7.0,0.15,0.15,0.6,1.0,0.8,800.0 MHz,-0.66,-8.541
6.0,7.0,7.0,0.15,0.15,0.6,1.0,0.8,900.0 MHz,-0.82,-7.675
6.0,7.0,7.0,0.15,0.15,0.6,1.0,0.8,1.000 GHz,-0.994,-6.923
6.0,7.0,7.0,0.15,0.15,0.6,1.0,0.8,1.100 GHz,-1.182,-6.262
6.0,7.0,7.0,0.15,0.15,0.6,1.0,0.8,1.200 GHz,-1.383,-5.675
6.0,7.0,7.0,0.15,0.15,0.6,1.0,0.8,1.300 GHz,-1.598,-5.148
6.0,7.0,7.0,0.15,0.15,0.6,1.0,0.8,1.400 GHz,-1.827,-4.671
6.0,7.0,7.0,0.15,0.15,0.6,1.0,0.8,1.500 GHz,-2.073,-4.237
6.0,7.0,7.0,0.15,0.15,0.6,1.0,0.8,1.600 GHz,-2.337,-3.837
6.0,7.0,7.0,0.15,0.15,0.6,1.0,0.8,1.700 GHz,-2.62,-3.468
6.0,7.0,7.0,0.15,0.15,0.6,1.0,0.8,1.800 GHz,-2.925,-3.126
6.0,7.0,7.0,0.15,0.15,0.6,1.0,0.8,1.900 GHz,-3.254,-2.808
6.0,7.0,7.0,0.15,0.15,0.6,1.0,0.8,2.000 GHz,-3.61,-2.511
6.0,7.0,7.0,0.15,0.15,0.6,1.0,0.8,2.100 GHz,-3.996,-2.235
6.0,7.0,7.0,0.15,0.15,0.6,1.0,0.8,2.200 GHz,-4.415,-1.979
6.0,7.0,7.0,0.15,0.15,0.6,1.0,0.8,2.300 GHz,-4.869,-1.741
6.0,7.0,7.0,0.15,0.15,0.6,1.0,0.8,2.400 GHz,-5.361,-1.523
6.0,7.0,7.0,0.15,0.15,0.6,1.0,0.8,2.500 GHz,-5.893,-1.323
6.0,7.0,7.0,0.15,0.15,0.6,1.0,0.8,2.600 GHz,-6.465,-1.141
6.0,7.0,7.0,0.15,0.15,0.6,1.0,0.8,2.700 GHz,-7.077,-0.979
6.0,7.0,7.0,0.15,0.15,0.6,1.0,0.8,2.800 GHz,-7.725,-0.836
6.0,7.0,7.0,0.15,0.15,0.6,1.0,0.8,2.900 GHz,-8.405,-0.711
6.0,7.0,7.0,0.15,0.15,0.6,1.0,0.8,3.000 GHz,-9.105,-0.605
6.0,7.0,7.0,0.15,0.15,0.6,1.0,0.8,3.100 GHz,-9.81,-0.517
6.0,7.0,7.0,0.15,0.15,0.6,1.0,0.8,3.200 GHz,-10.499,-0.445
6.0,7.0,7.0,0.15,0.15,0.6,1.0,0.8,3.300 GHz,-11.147,-0.389
6.0,7.0,7.0,0.15,0.15,0.6,1.0,0.8,3.400 GHz,-11.725,-0.346
6.0,7.0,7.0,0.15,0.15,0.6,1.0,0.8,3.500 GHz,-12.209,-0.316
6.0,7.0,7.0,0.15,0.15,0.6,1.0,0.8,3.600 GHz,-12.583,-0.296
6.0,7.0,7.0,0.15,0.15,0.6,1.0,0.8,3.700 GHz,-12.847,-0.285
6.0,7.0,7.0,0.15,0.15,0.6,1.0,0.8,3.800 GHz,-13.014,-0.279
6.0,7.0,7.0,0.15,0.15,0.6,1.0,0.8,3.900 GHz,-13.111,-0.278
6.0,7.0,7.0,0.15,0.15,0.6,1.0,0.8,4.000 GHz,-13.169,-0.279
6.0,7.0,7.0,0.15,0.15,0.6,1.0,1.4,800.0 MHz,-0.829,-7.634
6.0,7.0,7.0,0.15,0.15,0.6,1.0,1.4,900.0 MHz,-1.06,-6.674
6.0,7.0,7.0,0.15,0.15,0.6,1.0,1.4,1.000 GHz,-1.323,-5.839
6.0,7.0,7.0,0.15,0.15,0.6,1.0,1.4,1.100 GHz,-1.617,-5.108
6.0,7.0,7.0,0.15,0.15,0.6,1.0,1.4,1.200 GHz,-1.94,-4.466
6.0,7.0,7.0,0.15,0.15,0.6,1.0,1.4,1.300 GHz,-2.293,-3.902
6.0,7.0,7.0,0.15,0.15,0.6,1.0,1.4,1.400 GHz,-2.674,-3.407
6.0,7.0,7.0,0.15,0.15,0.6,1.0,1.4,1.500 GHz,-3.08,-2.973
6.0,7.0,7.0,0.15,0.15,0.6,1.0,1.4,1.600 GHz,-3.51,-2.594
6.0,7.0,7.0,0.15,0.15,0.6,1.0,1.4,1.700 GHz,-3.96,-2.263
6.0,7.0,7.0,0.15,0.15,0.6,1.0,1.4,1.800 GHz,-4.428,-1.975
6.0,7.0,7.0,0.15,0.15,0.6,1.0,1.4,1.900 GHz,-4.91,-1.725
6.0,7.0,7.0,0.15,0.15,0.6,1.0,1.4,2.000 GHz,-5.405,-1.508
6.0,7.0,7.0,0.15,0.15,0.6,1.0,1.4,2.100 GHz,-5.908,-1.32
6.0,7.0,7.0,0.15,0.15,0.6,1.0,1.4,2.200 GHz,-6.418,-1.158
6.0,7.0,7.0,0.15,0.15,0.6,1.0,1.4,2.300 GHz,-6.932,-1.018
6.0,7.0,7.0,0.15,0.15,0.6,1.0,1.4,2.400 GHz,-7.45,-0.896
6.0,7.0,7.0,0.15,0.15,0.6,1.0,1.4,2.500 GHz,-7.97,-0.791
6.0,7.0,7.0,0.15,0.15,0.6,1.0,1.4,2.600 GHz,-8.492,-0.7
6.0,7.0,7.0,0.15,0.15,0.6,1.0,1.4,2.700 GHz,-9.016,-0.621
6.0,7.0,7.0,0.15,0.15,0.6,1.0,1.4,2.800 GHz,-9.541,-0.553
6.0,7.0,7.0,0.15,0.15,0.6,1.0,1.4,2.900 GHz,-10.068,-0.493
6.0,7.0,7.0,0.15,0.15,0.6,1.0,1.4,3.000 GHz,-10.596,-0.442
6.0,7.0,7.0,0.15,0.15,0.6,1.0,1.4,3.100 GHz,-11.125,-0.397
6.0,7.0,7.0,0.15,0.15,0.6,1.0,1.4,3.200 GHz,-11.653,-0.358
6.0,7.0,7.0,0.15,0.15,0.6,1.0,1.4,3.300 GHz,-12.177,-0.324
6.0,7.0,7.0,0.15,0.15,0.6,1.0,1.4,3.400 GHz,-12.692,-0.296
6.0,7.0,7.0,0.15,0.15,0.6,1.0,1.4,3.500 GHz,-13.19,-0.272
6.0,7.0,7.0,0.15,0.15,0.6,1.0,1.4,3.600 GHz,-13.657,-0.253
6.0,7.0,7.0,0.15,0.15,0.6,1.0,1.4,3.700 GHz,-14.077,-0.238
6.0,7.0,7.0,0.15,0.15,0.6,1.0,1.4,3.800 GHz,-14.429,-0.228
6.0,7.0,7.0,0.15,0.15,0.6,1.0,1.4,3.900 GHz,-14.687,-0.222
6.0,7.0,7.0,0.15,0.15,0.6,1.0,1.4,4.000 GHz,-14.827,-0.221
6.0,7.0,7.0,0.15,0.15,0.6,1.0,2.0,800.0 MHz,-1.048,-6.722
6.0,7.0,7.0,0.15,0.15,0.6,1.0,2.0,900.0 MHz,-1.385,-5.671
6.0,7.0,7.0,0.15,0.15,0.6,1.0,2.0,1.000 GHz,-1.782,-4.764
6.0,7.0,7.0,0.15,0.15,0.6,1.0,2.0,1.100 GHz,-2.235,-3.989
6.0,7.0,7.0,0.15,0.15,0.6,1.0,2.0,1.200 GHz,-2.735,-3.339
6.0,7.0,7.0,0.15,0.15,0.6,1.0,2.0,1.300 GHz,-3.266,-2.803
6.0,7.0,7.0,0.15,0.15,0.6,1.0,2.0,1.400 GHz,-3.805,-2.374
6.0,7.0,7.0,0.15,0.15,0.6,1.0,2.0,1.500 GHz,-4.324,-2.039
6.0,7.0,7.0,0.15,0.15,0.6,1.0,2.0,1.600 GHz,-4.794,-1.785
6.0,7.0,7.0,0.15,0.15,0.6,1.0,2.0,1.700 GHz,-5.193,-1.6
6.0,7.0,7.0,0.15,0.15,0.6,1.0,2.0,1.800 GHz,-5.509,-1.471
6.0,7.0,7.0,0.15,0.15,0.6,1.0,2.0,1.900 GHz,-5.742,-1.384
6.0,7.0,7.0,0.15,0.15,0.6,1.0,2.0,2.000 GHz,-5.901,-1.328
6.0,7.0,7.0,0.15,0.15,0.6,1.0,2.0,2.100 GHz,-6.003,-1.294
6.0,7.0,7.0,0.15,0.15,0.6,1.0,2.0,2.200 GHz,-6.067,-1.275
6.0,7.0,7.0,0.15,0.15,0.6,1.0,2.0,2.300 GHz,-6.108,-1.263
6.0,7.0,7.0,0.15,0.15,0.6,1.0,2.0,2.400 GHz,-6.142,-1.254
6.0,7.0,7.0,0.15,0.15,0.6,1.0,2.0,2.500 GHz,-6.18,-1.243
6.0,7.0,7.0,0.15,0.15,0.6,1.0,2.0,2.600 GHz,-6.229,-1.23
6.0,7.0,7.0,0.15,0.15,0.6,1.0,2.0,2.700 GHz,-6.296,-1.212
6.0,7.0,7.0,0.15,0.15,0.6,1.0,2.0,2.800 GHz,-6.384,-1.187
6.0,7.0,7.0,0.15,0.15,0.6,1.0,2.0,2.900 GHz,-6.497,-1.156
6.0,7.0,7.0,0.15,0.15,0.6,1.0,2.0,3.000 GHz,-6.637,-1.119
6.0,7.0,7.0,0.15,0.15,0.6,1.0,2.0,3.100 GHz,-6.803,-1.077
6.0,7.0,7.0,0.15,0.15,0.6,1.0,2.0,3.200 GHz,-6.995,-1.03
6.0,7.0,7.0,0.15,0.15,0.6,1.0,2.0,3.300 GHz,-7.212,-0.98
6.0,7.0,7.0,0.15,0.15,0.6,1.0,2.0,3.400 GHz,-7.451,-0.928
6.0,7.0,7.0,0.15,0.15,0.6,1.0,2.0,3.500 GHz,-7.708,-0.877
6.0,7.0,7.0,0.15,0.15,0.6,1.0,2.0,3.600 GHz,-7.975,-0.827
6.0,7.0,7.0,0.15,0.15,0.6,1.0,2.0,3.700 GHz,-8.243,-0.781
6.0,7.0,7.0,0.15,0.15,0.6,1.0,2.0,3.800 GHz,-8.503,-0.74
6.0,7.0,7.0,0.15,0.15,0.6,1.0,2.0,3.900 GHz,-8.741,-0.706
6.0,7.0,7.0,0.15,0.15,0.6,1.0,2.0,4.000 GHz,-8.943,-0.679
6.0,7.0,7.0,0.15,0.15,0.6,1.5,0.2,800.0 MHz,-0.492,-9.737
6.0,7.0,7.0,0.15,0.15,0.6,1.5,0.2,900.0 MHz,-0.595,-8.957
6.0,7.0,7.0,0.15,0.15,0.6,1.5,0.2,1.000 GHz,-0.704,-8.282
6.0,7.0,7.0,0.15,0.15,0.6,1.5,0.2,1.100 GHz,-0.818,-7.684
6.0,7.0,7.0,0.15,0.15,0.6,1.5,0.2,1.200 GHz,-0.939,-7.146
6.0,7.0,7.0,0.15,0.15,0.6,1.5,0.2,1.300 GHz,-1.066,-6.653
6.0,7.0,7.0,0.15,0.15,0.6,1.5,0.2,1.400 GHz,-1.202,-6.196
6.0,7.0,7.0,0.15,0.15,0.6,1.5,0.2,1.500 GHz,-1.349,-5.765
6.0,7.0,7.0,0.15,0.15,0.6,1.5,0.2,1.600 GHz,-1.508,-5.356
6.0,7.0,7.0,0.15,0.15,0.6,1.5,0.2,1.700 GHz,-1.681,-4.964
6.0,7.0,7.0,0.15,0.15,0.6,1.5,0.2,1.800 GHz,-1.871,-4.587
6.0,7.0,7.0,0.15,0.15,0.6,1.5,0.2,1.900 GHz,-2.079,-4.224
6.0,7.0,7.0,0.15,0.15,0.6,1.5,0.2,2.000 GHz,-2.308,-3.875
6.0,7.0,7.0,0.15,0.15,0.6,1.5,0.2,2.100 GHz,-2.557,-3.542
6.0,7.0,7.0,0.15,0.15,0.6,1.5,0.2,2.200 GHz,-2.828,-3.226
6.0,7.0,7.0,0.15,0.15,0.6,1.5,0.2,2.300 GHz,-3.116,-2.932
6.0,7.0,7.0,0.15,0.15,0.6,1.5,0.2,2.400 GHz,-3.416,-2.664
6.0,7.0,7.0,0.15,0.15,0.6,1.5,0.2,2.500 GHz,-3.719,-2.426
6.0,7.0,7.0,0.15,0.15,0.6,1.5,0.2,2.600 GHz,-4.008,-2.224
6.0,7.0,7.0,0.15,0.15,0.6,1.5,0.2,2.700 GHz,-4.266,-2.063
6.0,7.0,7.0,0.15,0.15,0.6,1.5,0.2,2.800 GHz,-4.469,-1.946
6.0,7.0,7.0,0.15,0.15,0.6,1.5,0.2,2.900 GHz,-4.599,-1.877
6.0,7.0,7.0,0.15,0.15,0.6,1.5,0.2,3.000 GHz,-4.641,-1.856
6.0,7.0,7.0,0.15,0.15,0.6,1.5,0.2,3.100 GHz,-4.594,-1.882
6.0,7.0,7.0,0.15,0.15,0.6,1.5,0.2,3.200 GHz,-4.468,-1.953
6.0,7.0,7.0,0.15,0.15,0.6,1.5,0.2,3.300 GHz,-4.281,-2.063
6.0,7.0,7.0,0.15,0.15,0.6,1.5,0.2,3.400 GHz,-4.055,-2.207
6.0,7.0,7.0,0.15,0.15,0.6,1.5,0.2,3.500 GHz,-3.809,-2.377
6.0,7.0,7.0,0.15,0.15,0.6,1.5,0.2,3.600 GHz,-3.561,-2.566
6.0,7.0,7.0,0.15,0.15,0.6,1.5,0.2,3.700 GHz,-3.323,-2.768
6.0,7.0,7.0,0.15,0.15,0.6,1.5,0.2,3.800 GHz,-3.101,-2.975
6.0,7.0,7.0,0.15,0.15,0.6,1.5,0.2,3.900 GHz,-2.901,-3.182
6.0,7.0,7.0,0.15,0.15,0.6,1.5,0.2,4.000 GHz,-2.724,-3.382
6.0,7.0,7.0,0.15,0.15,0.6,1.5,0.8,800.0 MHz,-0.669,-8.484
6.0,7.0,7.0,0.15,0.15,0.6,1.5,0.8,900.0 MHz,-0.84,-7.579
6.0,7.0,7.0,0.15,0.15,0.6,1.5,0.8,1.000 GHz,-1.03,-6.785
6.0,7.0,7.0,0.15,0.15,0.6,1.5,0.8,1.100 GHz,-1.24,-6.081
6.0,7.0,7.0,0.15,0.15,0.6,1.5,0.8,1.200 GHz,-1.47,-5.449
6.0,7.0,7.0,0.15,0.15,0.6,1.5,0.8,1.300 GHz,-1.724,-4.877
6.0,7.0,7.0,0.15,0.15,0.6,1.5,0.8,1.400 GHz,-2.003,-4.354
6.0,7.0,7.0,0.15,0.15,0.6,1.5,0.8,1.500 GHz,-2.311,-3.873
6.0,7.0,7.0,0.15,0.15,0.6,1.5,0.8,1.600 GHz,-2.652,-3.429
6.0,7.0,7.0,0.15,0.15,0.6,1.5,0.8,1.700 GHz,-3.031,-3.018
6.0,7.0,7.0,0.15,0.15,0.6,1.5,0.8,1.800 GHz,-3.453,-2.636
6.0,7.0,7.0,0.15,0.15,0.6,1.5,0.8,1.900 GHz,-3.926,-2.281
6.0,7.0,7.0,0.15,0.15,0.6,1.5,0.8,2.000 GHz,-4.456,-1.954
6.0,7.0,7.0,0.15,0.15,0.6,1.5,0.8,2.100 GHz,-5.053,-1.653
6.0,7.0,7.0,0.15,0.15,0.6,1.5,0.8,2.200 GHz,-5.725,-1.379
6.0,7.0,7.0,0.15,0.15,0.6,1.5,0.8,2.300 GHz,-6.482,-1.132
6.0,7.0,7.0,0.15,0.15,0.6,1.5,0.8,2.400 GHz,-7.332,-0.914
6.0,7.0,7.0,0.15,0.15,0.6,1.5,0.8,2.500 GHz,-8.28,-0.726
6.0,7.0,7.0,0.15,0.15,0.6,1.5,0.8,2.600 GHz,-9.325,-0.567
6.0,7.0,7.0,0.15,0.15,0.6,1.5,0.8,2.700 GHz,-10.45,-0.439
6.0,7.0,7.0,0.15,0.15,0.6,1.5,0.8,2.800 GHz,-11.606,-0.341
6.0,7.0,7.0,0.15,0.15,0.6,1.5,0.8,2.900 GHz,-12.689,-0.271
6.0,7.0,7.0,0.15,0.15,0.6,1.5,0.8,3.000 GHz,-13.533,-0.229
6.0,7.0,7.0,0.15,0.15,0.6,1.5,0.8,3.100 GHz,-13.955,-0.212
6.0,7.0,7.0,0.15,0.15,0.6,1.5,0.8,3.200 GHz,-13.876,-0.218
6.0,7.0,7.0,0.15,0.15,0.6,1.5,0.8,3.300 GHz,-13.392,-0.242
6.0,7.0,7.0,0.15,0.15,0.6,1.5,0.8,3.400 GHz,-12.687,-0.281
6.0,7.0,7.0,0.15,0.15,0.6,1.5,0.8,3.500 GHz,-11.921,-0.332
6.0,7.0,7.0,0.15,0.15,0.6,1.5,0.8,3.600 GHz,-11.186,-0.391
6.0,7.0,7.0,0.15,0.15,0.6,1.5,0.8,3.700 GHz,-10.528,-0.454
6.0,7.0,7.0,0.15,0.15,0.6,1.5,0.8,3.800 GHz,-9.963,-0.517
6.0,7.0,7.0,0.15,0.15,0.6,1.5,0.8,3.900 GHz,-9.492,-0.578
6.0,7.0,7.0,0.15,0.15,0.6,1.5,0.8,4.000 GHz,-9.112,-0.633
6.0,7.0,7.0,0.15,0.15,0.6,1.5,1.4,800.0 MHz,-0.845,-7.555
6.0,7.0,7.0,0.15,0.15,0.6,1.5,1.4,900.0 MHz,-1.093,-6.558
6.0,7.0,7.0,0.15,0.15,0.6,1.5,1.4,1.000 GHz,-1.38,-5.683
6.0,7.0,7.0,0.15,0.15,0.6,1.5,1.4,1.100 GHz,-1.707,-4.913
6.0,7.0,7.0,0.15,0.15,0.6,1.5,1.4,1.200 GHz,-2.077,-4.233
6.0,7.0,7.0,0.15,0.15,0.6,1.5,1.4,1.300 GHz,-2.489,-3.634
6.0,7.0,7.0,0.15,0.15,0.6,1.5,1.4,1.400 GHz,-2.945,-3.108
6.0,7.0,7.0,0.15,0.15,0.6,1.5,1.4,1.500 GHz,-3.443,-2.647
6.0,7.0,7.0,0.15,0.15,0.6,1.5,1.4,1.600 GHz,-3.984,-2.246
6.0,7.0,7.0,0.15,0.15,0.6,1.5,1.4,1.700 GHz,-4.566,-1.898
6.0,7.0,7.0,0.15,0.15,0.6,1.5,1.4,1.800 GHz,-5.187,-1.597
6.0,7.0,7.0,0.15,0.15,0.6,1.5,1.4,1.900 GHz,-5.844,-1.34
6.0,7.0,7.0,0.15,0.15,0.6,1.5,1.4,2.000 GHz,-6.537,-1.12
6.0,7.0,7.0,0.15,0.15,0.6,1.5,1.4,2.100 GHz,-7.264,-0.933
